Freq.	V(vi)/I(RS)
1.00000000000000e+000	(5.99998356437157e+001dB,1.79999998126771e+002°)
1.02329299228075e+000	(5.99998356434968e+001dB,1.79999998083393e+002°)
1.04712854805090e+000	(5.99998356432688e+001dB,1.79999998038565e+002°)
1.07151930523761e+000	(5.99998356430310e+001dB,1.79999997993010e+002°)
1.09647819614318e+000	(5.99998356427828e+001dB,1.79999997946470e+002°)
1.12201845430196e+000	(5.99998356425217e+001dB,1.79999997898645e+002°)
1.14815362149688e+000	(5.99998356422457e+001dB,1.79999997849822e+002°)
1.17489755493953e+000	(5.99998356419609e+001dB,1.79999997799851e+002°)
1.20226443461741e+000	(5.99998356416627e+001dB,1.79999997748723e+002°)
1.23026877081238e+000	(5.99998356413495e+001dB,1.79999997696363e+002°)
1.25892541179417e+000	(5.99998356410217e+001dB,1.79999997643013e+002°)
1.28824955169313e+000	(5.99998356406782e+001dB,1.79999997588222e+002°)
1.31825673855641e+000	(5.99998356403188e+001dB,1.79999997532473e+002°)
1.34896288259165e+000	(5.99998356399438e+001dB,1.79999997475166e+002°)
1.38038426460288e+000	(5.99998356395490e+001dB,1.79999997416692e+002°)
1.41253754462275e+000	(5.99998356391384e+001dB,1.79999997356488e+002°)
1.44543977074593e+000	(5.99998356387088e+001dB,1.79999997295101e+002°)
1.47910838816821e+000	(5.99998356382572e+001dB,1.79999997232642e+002°)
1.51356124843621e+000	(5.99998356377876e+001dB,1.79999997168291e+002°)
1.54881661891248e+000	(5.99998356372937e+001dB,1.79999997102803e+002°)
1.58489319246111e+000	(5.99998356367780e+001dB,1.79999997035442e+002°)
1.62181009735893e+000	(5.99998356362386e+001dB,1.79999996966934e+002°)
1.65958690743756e+000	(5.99998356356742e+001dB,1.79999996896624e+002°)
1.69824365246174e+000	(5.99998356350830e+001dB,1.79999996824727e+002°)
1.73780082874937e+000	(5.99998356344658e+001dB,1.79999996751286e+002°)
1.77827941003892e+000	(5.99998356338186e+001dB,1.79999996676073e+002°)
1.81970085860998e+000	(5.99998356331436e+001dB,1.79999996599160e+002°)
1.86208713666287e+000	(5.99998356324368e+001dB,1.79999996520500e+002°)
1.90546071796325e+000	(5.99998356316988e+001dB,1.79999996440028e+002°)
1.94984459975804e+000	(5.99998356309247e+001dB,1.79999996357655e+002°)
1.99526231496888e+000	(5.99998356301168e+001dB,1.79999996273552e+002°)
2.04173794466953e+000	(5.99998356292704e+001dB,1.79999996187456e+002°)
2.08929613085404e+000	(5.99998356283878e+001dB,1.79999996099345e+002°)
2.13796208950223e+000	(5.99998356274627e+001dB,1.79999996009361e+002°)
2.18776162394955e+000	(5.99998356264964e+001dB,1.79999995917232e+002°)
2.23872113856834e+000	(5.99998356254877e+001dB,1.79999995823064e+002°)
2.29086765276777e+000	(5.99998356244304e+001dB,1.79999995726777e+002°)
2.34422881531992e+000	(5.99998356233290e+001dB,1.79999995628341e+002°)
2.39883291901949e+000	(5.99998356221756e+001dB,1.79999995527827e+002°)
2.45470891568503e+000	(5.99998356209714e+001dB,1.79999995424838e+002°)
2.51188643150958e+000	(5.99998356197133e+001dB,1.79999995319570e+002°)
2.57039578276886e+000	(5.99998356183971e+001dB,1.79999995211820e+002°)
2.63026799189538e+000	(5.99998356170244e+001dB,1.79999995101836e+002°)
2.69153480392691e+000	(5.99998356155875e+001dB,1.79999994989310e+002°)
2.75422870333816e+000	(5.99998356140897e+001dB,1.79999994874357e+002°)
2.81838293126445e+000	(5.99998356125228e+001dB,1.79999994756764e+002°)
2.88403150312660e+000	(5.99998356108889e+001dB,1.79999994636606e+002°)
2.95120922666638e+000	(5.99998356091821e+001dB,1.79999994513716e+002°)
3.01995172040201e+000	(5.99998356074009e+001dB,1.79999994388290e+002°)
3.09029543251359e+000	(5.99998356055409e+001dB,1.79999994259915e+002°)
3.16227766016837e+000	(5.99998356035999e+001dB,1.79999994128678e+002°)
3.23593656929628e+000	(5.99998356015755e+001dB,1.79999993994679e+002°)
3.31131121482591e+000	(5.99998355994613e+001dB,1.79999993857658e+002°)
3.38844156139202e+000	(5.99998355972572e+001dB,1.79999993717711e+002°)
3.46736850452531e+000	(5.99998355949592e+001dB,1.79999993574694e+002°)
3.54813389233575e+000	(5.99998355925632e+001dB,1.79999993428485e+002°)
3.63078054770101e+000	(5.99998355900642e+001dB,1.79999993279233e+002°)
3.71535229097172e+000	(5.99998355874580e+001dB,1.79999993126686e+002°)
3.80189396320560e+000	(5.99998355847432e+001dB,1.79999992970808e+002°)
3.89045144994280e+000	(5.99998355819155e+001dB,1.79999992811718e+002°)
3.98107170553496e+000	(5.99998355789694e+001dB,1.79999992649094e+002°)
4.07380277804112e+000	(5.99998355759004e+001dB,1.79999992483020e+002°)
4.16869383470335e+000	(5.99998355727059e+001dB,1.79999992313502e+002°)
4.26579518801592e+000	(5.99998355693800e+001dB,1.79999992140368e+002°)
4.36515832240165e+000	(5.99998355659175e+001dB,1.79999991963487e+002°)
4.46683592150962e+000	(5.99998355623180e+001dB,1.79999991783005e+002°)
4.57088189614874e+000	(5.99998355585700e+001dB,1.79999991598683e+002°)
4.67735141287197e+000	(5.99998355546764e+001dB,1.79999991410591e+002°)
4.78630092322637e+000	(5.99998355506277e+001dB,1.79999991218541e+002°)
4.89778819368445e+000	(5.99998355464211e+001dB,1.79999991022538e+002°)
5.01187233627271e+000	(5.99998355420511e+001dB,1.79999990822443e+002°)
5.12861383991364e+000	(5.99998355375140e+001dB,1.79999990618328e+002°)
5.24807460249771e+000	(5.99998355328025e+001dB,1.79999990410094e+002°)
5.37031796370252e+000	(5.99998355279117e+001dB,1.79999990197567e+002°)
5.49540873857623e+000	(5.99998355228420e+001dB,1.79999989980775e+002°)
5.62341325190348e+000	(5.99998355175846e+001dB,1.79999989759712e+002°)
5.75439937337156e+000	(5.99998355121333e+001dB,1.79999989534130e+002°)
5.88843655355588e+000	(5.99998355064865e+001dB,1.79999989304115e+002°)
6.02559586074356e+000	(5.99998355006389e+001dB,1.79999989069577e+002°)
6.16595001861481e+000	(5.99998354945872e+001dB,1.79999988830460e+002°)
6.30957344480192e+000	(5.99998354883234e+001dB,1.79999988586677e+002°)
6.45654229034654e+000	(5.99998354818500e+001dB,1.79999988338166e+002°)
6.60693448007594e+000	(5.99998354751556e+001dB,1.79999988084818e+002°)
6.76082975391980e+000	(5.99998354682415e+001dB,1.79999987826723e+002°)
6.91830970918935e+000	(5.99998354611032e+001dB,1.79999987563620e+002°)
7.07945784384136e+000	(5.99998354537345e+001dB,1.79999987295535e+002°)
7.24435960074988e+000	(5.99998354461364e+001dB,1.79999987022443e+002°)
7.41310241300916e+000	(5.99998354383070e+001dB,1.79999986744205e+002°)
7.58577575029182e+000	(5.99998354302397e+001dB,1.79999986460757e+002°)
7.76247116628690e+000	(5.99998354219378e+001dB,1.79999986172134e+002°)
7.94328234724279e+000	(5.99998354133961e+001dB,1.79999985878183e+002°)
8.12830516164097e+000	(5.99998354046128e+001dB,1.79999985578811e+002°)
8.31763771102669e+000	(5.99998353955907e+001dB,1.79999985274049e+002°)
8.51138038202374e+000	(5.99998353863275e+001dB,1.79999984963649e+002°)
8.70963589956078e+000	(5.99998353768268e+001dB,1.79999984647745e+002°)
8.91250938133743e+000	(5.99998353670858e+001dB,1.79999984326132e+002°)
9.12010839355907e+000	(5.99998353571055e+001dB,1.79999983998756e+002°)
9.33254300796988e+000	(5.99998353468929e+001dB,1.79999983665533e+002°)
9.54992586021433e+000	(5.99998353364460e+001dB,1.79999983326399e+002°)
9.77237220955808e+000	(5.99998353257728e+001dB,1.79999982981276e+002°)
9.99999999999997e+000	(5.99998353148754e+001dB,1.79999982630048e+002°)
1.02329299228075e+001	(5.99998353037566e+001dB,1.79999982272589e+002°)
1.04712854805090e+001	(5.99998352924220e+001dB,1.79999981908885e+002°)
1.07151930523760e+001	(5.99998352808781e+001dB,1.79999981538755e+002°)
1.09647819614318e+001	(5.99998352691364e+001dB,1.79999981162096e+002°)
1.12201845430196e+001	(5.99998352571987e+001dB,1.79999980778828e+002°)
1.14815362149688e+001	(5.99998352450753e+001dB,1.79999980388778e+002°)
1.17489755493953e+001	(5.99998352327746e+001dB,1.79999979991914e+002°)
1.20226443461741e+001	(5.99998352203061e+001dB,1.79999979588001e+002°)
1.23026877081238e+001	(5.99998352076783e+001dB,1.79999979176928e+002°)
1.25892541179416e+001	(5.99998351949039e+001dB,1.79999978758562e+002°)
1.28824955169313e+001	(5.99998351819925e+001dB,1.79999978332699e+002°)
1.31825673855640e+001	(5.99998351689591e+001dB,1.79999977899238e+002°)
1.34896288259165e+001	(5.99998351558097e+001dB,1.79999977457965e+002°)
1.38038426460288e+001	(5.99998351425649e+001dB,1.79999977008669e+002°)
1.41253754462275e+001	(5.99998351292331e+001dB,1.79999976551198e+002°)
1.44543977074592e+001	(5.99998351158252e+001dB,1.79999976085323e+002°)
1.47910838816820e+001	(5.99998351023616e+001dB,1.79999975610836e+002°)
1.51356124843620e+001	(5.99998350888494e+001dB,1.79999975127513e+002°)
1.54881661891248e+001	(5.99998350753090e+001dB,1.79999974635091e+002°)
1.58489319246111e+001	(5.99998350617494e+001dB,1.79999974133336e+002°)
1.62181009735892e+001	(5.99998350481880e+001dB,1.79999973621982e+002°)
1.65958690743755e+001	(5.99998350346396e+001dB,1.79999973100788e+002°)
1.69824365246174e+001	(5.99998350211155e+001dB,1.79999972569416e+002°)
1.73780082874937e+001	(5.99998350076309e+001dB,1.79999972027591e+002°)
1.77827941003892e+001	(5.99998349942026e+001dB,1.79999971475008e+002°)
1.81970085860998e+001	(5.99998349808423e+001dB,1.79999970911352e+002°)
1.86208713666286e+001	(5.99998349675638e+001dB,1.79999970336283e+002°)
1.90546071796324e+001	(5.99998349543794e+001dB,1.79999969749452e+002°)
1.94984459975804e+001	(5.99998349413029e+001dB,1.79999969150527e+002°)
1.99526231496887e+001	(5.99998349283468e+001dB,1.79999968539085e+002°)
2.04173794466952e+001	(5.99998349155233e+001dB,1.79999967914800e+002°)
2.08929613085403e+001	(5.99998349028426e+001dB,1.79999967277259e+002°)
2.13796208950222e+001	(5.99998348903176e+001dB,1.79999966626069e+002°)
2.18776162394954e+001	(5.99998348779563e+001dB,1.79999965960770e+002°)
2.23872113856833e+001	(5.99998348657659e+001dB,1.79999965281014e+002°)
2.29086765276776e+001	(5.99998348537599e+001dB,1.79999964586302e+002°)
2.34422881531991e+001	(5.99998348419473e+001dB,1.79999963876203e+002°)
2.39883291901948e+001	(5.99998348303338e+001dB,1.79999963150260e+002°)
2.45470891568502e+001	(5.99998348189248e+001dB,1.79999962408004e+002°)
2.51188643150957e+001	(5.99998348077307e+001dB,1.79999961648944e+002°)
2.57039578276885e+001	(5.99998347967519e+001dB,1.79999960872606e+002°)
2.63026799189537e+001	(5.99998347859977e+001dB,1.79999960078464e+002°)
2.69153480392690e+001	(5.99998347754691e+001dB,1.79999959266030e+002°)
2.75422870333815e+001	(5.99998347651742e+001dB,1.79999958434761e+002°)
2.81838293126444e+001	(5.99998347551101e+001dB,1.79999957584152e+002°)
2.88403150312659e+001	(5.99998347452853e+001dB,1.79999956713615e+002°)
2.95120922666637e+001	(5.99998347356989e+001dB,1.79999955822635e+002°)
3.01995172040200e+001	(5.99998347263497e+001dB,1.79999954910641e+002°)
3.09029543251358e+001	(5.99998347172430e+001dB,1.79999953977037e+002°)
3.16227766016837e+001	(5.99998347083752e+001dB,1.79999953021265e+002°)
3.23593656929627e+001	(5.99998346997498e+001dB,1.79999952042717e+002°)
3.31131121482590e+001	(5.99998346913605e+001dB,1.79999951040792e+002°)
3.38844156139201e+001	(5.99998346832135e+001dB,1.79999950014857e+002°)
3.46736850452530e+001	(5.99998346752972e+001dB,1.79999948964308e+002°)
3.54813389233574e+001	(5.99998346676197e+001dB,1.79999947888497e+002°)
3.63078054770100e+001	(5.99998346601716e+001dB,1.79999946786758e+002°)
3.71535229097171e+001	(5.99998346529515e+001dB,1.79999945658464e+002°)
3.80189396320559e+001	(5.99998346459586e+001dB,1.79999944502903e+002°)
3.89045144994279e+001	(5.99998346391886e+001dB,1.79999943319416e+002°)
3.98107170553495e+001	(5.99998346326350e+001dB,1.79999942107296e+002°)
4.07380277804111e+001	(5.99998346262987e+001dB,1.79999940865826e+002°)
4.16869383470333e+001	(5.99998346201745e+001dB,1.79999939594284e+002°)
4.26579518801591e+001	(5.99998346142550e+001dB,1.79999938291935e+002°)
4.36515832240164e+001	(5.99998346085409e+001dB,1.79999936958033e+002°)
4.46683592150961e+001	(5.99998346030225e+001dB,1.79999935591790e+002°)
4.57088189614873e+001	(5.99998345976975e+001dB,1.79999934192454e+002°)
4.67735141287196e+001	(5.99998345925620e+001dB,1.79999932759203e+002°)
4.78630092322636e+001	(5.99998345876098e+001dB,1.79999931291242e+002°)
4.89778819368444e+001	(5.99998345828402e+001dB,1.79999929787719e+002°)
5.01187233627270e+001	(5.99998345782420e+001dB,1.79999928247826e+002°)
5.12861383991362e+001	(5.99998345738160e+001dB,1.79999926670673e+002°)
5.24807460249770e+001	(5.99998345695534e+001dB,1.79999925055388e+002°)
5.37031796370250e+001	(5.99998345654504e+001dB,1.79999923401062e+002°)
5.49540873857622e+001	(5.99998345615052e+001dB,1.79999921706807e+002°)
5.62341325190346e+001	(5.99998345577111e+001dB,1.79999919971654e+002°)
5.75439937337154e+001	(5.99998345540611e+001dB,1.79999918194673e+002°)
5.88843655355586e+001	(5.99998345505541e+001dB,1.79999916374864e+002°)
6.02559586074355e+001	(5.99998345471853e+001dB,1.79999914511249e+002°)
6.16595001861479e+001	(5.99998345439464e+001dB,1.79999912602809e+002°)
6.30957344480190e+001	(5.99998345408384e+001dB,1.79999910648491e+002°)
6.45654229034652e+001	(5.99998345378521e+001dB,1.79999908647239e+002°)
6.60693448007593e+001	(5.99998345349867e+001dB,1.79999906597965e+002°)
6.76082975391978e+001	(5.99998345322351e+001dB,1.79999904499552e+002°)
6.91830970918933e+001	(5.99998345295964e+001dB,1.79999902350873e+002°)
7.07945784384134e+001	(5.99998345270645e+001dB,1.79999900150764e+002°)
7.24435960074986e+001	(5.99998345246376e+001dB,1.79999897898035e+002°)
7.41310241300914e+001	(5.99998345223098e+001dB,1.79999895591470e+002°)
7.58577575029180e+001	(5.99998345200782e+001dB,1.79999893229839e+002°)
7.76247116628688e+001	(5.99998345179398e+001dB,1.79999890811859e+002°)
7.94328234724277e+001	(5.99998345158907e+001dB,1.79999888336241e+002°)
8.12830516164095e+001	(5.99998345139264e+001dB,1.79999885801649e+002°)
8.31763771102667e+001	(5.99998345120456e+001dB,1.79999883206731e+002°)
8.51138038202372e+001	(5.99998345102447e+001dB,1.79999880550098e+002°)
8.70963589956076e+001	(5.99998345085181e+001dB,1.79999877830318e+002°)
8.91250938133741e+001	(5.99998345068662e+001dB,1.79999875045953e+002°)
9.12010839355905e+001	(5.99998345052833e+001dB,1.79999872195496e+002°)
9.33254300796986e+001	(5.99998345037707e+001dB,1.79999869277445e+002°)
9.54992586021431e+001	(5.99998345023229e+001dB,1.79999866290230e+002°)
9.77237220955805e+001	(5.99998345009369e+001dB,1.79999863232261e+002°)
9.99999999999995e+001	(5.99998344996119e+001dB,1.79999860101906e+002°)
1.02329299228075e+002	(5.99998344983433e+001dB,1.79999856897499e+002°)
1.04712854805089e+002	(5.99998344971304e+001dB,1.79999853617334e+002°)
1.07151930523760e+002	(5.99998344959706e+001dB,1.79999850259661e+002°)
1.09647819614318e+002	(5.99998344948613e+001dB,1.79999846822697e+002°)
1.12201845430196e+002	(5.99998344938036e+001dB,1.79999843304612e+002°)
1.14815362149688e+002	(5.99998344927907e+001dB,1.79999839703530e+002°)
1.17489755493952e+002	(5.99998344918239e+001dB,1.79999836017542e+002°)
1.20226443461741e+002	(5.99998344908999e+001dB,1.79999832244686e+002°)
1.23026877081237e+002	(5.99998344900162e+001dB,1.79999828382955e+002°)
1.25892541179416e+002	(5.99998344891736e+001dB,1.79999824430300e+002°)
1.28824955169313e+002	(5.99998344883715e+001dB,1.79999820384618e+002°)
1.31825673855640e+002	(5.99998344876032e+001dB,1.79999816243760e+002°)
1.34896288259165e+002	(5.99998344868706e+001dB,1.79999812005531e+002°)
1.38038426460288e+002	(5.99998344861718e+001dB,1.79999807667675e+002°)
1.41253754462275e+002	(5.99998344855051e+001dB,1.79999803227891e+002°)
1.44543977074592e+002	(5.99998344848698e+001dB,1.79999798683817e+002°)
1.47910838816820e+002	(5.99998344842643e+001dB,1.79999794033051e+002°)
1.51356124843620e+002	(5.99998344836882e+001dB,1.79999789273115e+002°)
1.54881661891247e+002	(5.99998344831394e+001dB,1.79999784401488e+002°)
1.58489319246110e+002	(5.99998344826173e+001dB,1.79999779415577e+002°)
1.62181009735892e+002	(5.99998344821208e+001dB,1.79999774312747e+002°)
1.65958690743755e+002	(5.99998344816478e+001dB,1.79999769090284e+002°)
1.69824365246173e+002	(5.99998344811969e+001dB,1.79999763745417e+002°)
1.73780082874936e+002	(5.99998344807708e+001dB,1.79999758275313e+002°)
1.77827941003891e+002	(5.99998344803667e+001dB,1.79999752677066e+002°)
1.81970085860997e+002	(5.99998344799811e+001dB,1.79999746947708e+002°)
1.86208713666286e+002	(5.99998344796177e+001dB,1.79999741084199e+002°)
1.90546071796323e+002	(5.99998344792727e+001dB,1.79999735083432e+002°)
1.94984459975803e+002	(5.99998344789474e+001dB,1.79999728942221e+002°)
1.99526231496887e+002	(5.99998344786409e+001dB,1.79999722657309e+002°)
2.04173794466952e+002	(5.99998344783503e+001dB,1.79999716225363e+002°)
2.08929613085403e+002	(5.99998344780779e+001dB,1.79999709642971e+002°)
2.13796208950222e+002	(5.99998344778213e+001dB,1.79999702906642e+002°)
2.18776162394954e+002	(5.99998344775795e+001dB,1.79999696012804e+002°)
2.23872113856832e+002	(5.99998344773511e+001dB,1.79999688957799e+002°)
2.29086765276776e+002	(5.99998344771409e+001dB,1.79999681737888e+002°)
2.34422881531991e+002	(5.99998344769439e+001dB,1.79999674349240e+002°)
2.39883291901947e+002	(5.99998344767625e+001dB,1.79999666787939e+002°)
2.45470891568501e+002	(5.99998344765917e+001dB,1.79999659049975e+002°)
2.51188643150956e+002	(5.99998344764361e+001dB,1.79999651131242e+002°)
2.57039578276885e+002	(5.99998344762932e+001dB,1.79999643027542e+002°)
2.63026799189536e+002	(5.99998344761631e+001dB,1.79999634734579e+002°)
2.69153480392690e+002	(5.99998344760443e+001dB,1.79999626247957e+002°)
2.75422870333815e+002	(5.99998344759385e+001dB,1.79999617563172e+002°)
2.81838293126443e+002	(5.99998344758443e+001dB,1.79999608675618e+002°)
2.88403150312659e+002	(5.99998344757612e+001dB,1.79999599580586e+002°)
2.95120922666637e+002	(5.99998344756903e+001dB,1.79999590273252e+002°)
3.01995172040200e+002	(5.99998344756321e+001dB,1.79999580748681e+002°)
3.09029543251357e+002	(5.99998344755842e+001dB,1.79999571001822e+002°)
3.16227766016836e+002	(5.99998344755474e+001dB,1.79999561027507e+002°)
3.23593656929626e+002	(5.99998344755201e+001dB,1.79999550820445e+002°)
3.31131121482589e+002	(5.99998344755063e+001dB,1.79999540375229e+002°)
3.38844156139200e+002	(5.99998344755038e+001dB,1.79999529686316e+002°)
3.46736850452529e+002	(5.99998344755102e+001dB,1.79999518748040e+002°)
3.54813389233573e+002	(5.99998344755268e+001dB,1.79999507554602e+002°)
3.63078054770099e+002	(5.99998344755569e+001dB,1.79999496100064e+002°)
3.71535229097170e+002	(5.99998344755967e+001dB,1.79999484378355e+002°)
3.80189396320558e+002	(5.99998344756504e+001dB,1.79999472383260e+002°)
3.89045144994278e+002	(5.99998344757136e+001dB,1.79999460108417e+002°)
3.98107170553494e+002	(5.99998344757883e+001dB,1.79999447547318e+002°)
4.07380277804110e+002	(5.99998344758746e+001dB,1.79999434693305e+002°)
4.16869383470332e+002	(5.99998344759730e+001dB,1.79999421539561e+002°)
4.26579518801589e+002	(5.99998344760843e+001dB,1.79999408079111e+002°)
4.36515832240163e+002	(5.99998344762056e+001dB,1.79999394304818e+002°)
4.46683592150960e+002	(5.99998344763396e+001dB,1.79999380209378e+002°)
4.57088189614872e+002	(5.99998344764900e+001dB,1.79999365785320e+002°)
4.67735141287195e+002	(5.99998344766498e+001dB,1.79999351024994e+002°)
4.78630092322635e+002	(5.99998344768249e+001dB,1.79999335920574e+002°)
4.89778819368443e+002	(5.99998344770149e+001dB,1.79999320464051e+002°)
5.01187233627268e+002	(5.99998344772165e+001dB,1.79999304647231e+002°)
5.12861383991361e+002	(5.99998344774333e+001dB,1.79999288461726e+002°)
5.24807460249769e+002	(5.99998344776651e+001dB,1.79999271898956e+002°)
5.37031796370249e+002	(5.99998344779153e+001dB,1.79999254950137e+002°)
5.49540873857620e+002	(5.99998344781778e+001dB,1.79999237606283e+002°)
5.62341325190345e+002	(5.99998344784596e+001dB,1.79999219858200e+002°)
5.75439937337152e+002	(5.99998344787597e+001dB,1.79999201696475e+002°)
5.88843655355584e+002	(5.99998344790773e+001dB,1.79999183111481e+002°)
6.02559586074353e+002	(5.99998344794111e+001dB,1.79999164093361e+002°)
6.16595001861477e+002	(5.99998344797666e+001dB,1.79999144632034e+002°)
6.30957344480188e+002	(5.99998344801402e+001dB,1.79999124717180e+002°)
